
T2878 016:302 SEGGER J-Link V6.32i Log File (0002ms, 0007ms total)
T2878 016:302 DLL Compiled: Jul 24 2018 15:19:55 (0002ms, 0007ms total)
T2878 016:302 Logging started @ 2020-07-06 18:12 (0002ms, 0007ms total)
T2878 016:304 JLINK_SetWarnOutHandler(...) (0000ms, 0007ms total)
T2878 016:304 JLINK_OpenEx(...)
Firmware: J-Link V9 compiled Dec 13 2019 11:14:50
Hardware: V9.60
S/N: 69642975
Feature(s): RDI, GDB, FlashDL, FlashBP, JFlash
TELNET listener socket opened on port 19021WEBSRV 
Starting webserver (0016ms, 0023ms total)
T2878 016:304 WEBSRV Webserver running on local port 19080 (0016ms, 0023ms total)
T2878 016:304   returns O.K. (0016ms, 0023ms total)
T2878 016:320 JLINK_GetEmuCaps()  returns 0xB9FF7BBF (0001ms, 0024ms total)
T2878 016:321 JLINK_TIF_GetAvailable(...) (0000ms, 0024ms total)
T2878 016:321 JLINK_SetErrorOutHandler(...) (0000ms, 0024ms total)
T2878 016:321 JLINK_ExecCommand("ProjectFile = "D:\TN2115S\FW_TN2115S\TN2115s1\FW_TN2115S_demo\FW_TN2115s1_BLUE_Board\FW_eink_1.54bw_yt\JLinkSettings.ini"", ...). Ref file found at: D:\CodeSoftWare\Keil5\ARM\Segger\JLinkDevices.ref (0004ms, 0028ms total)
T2878 016:321 XML referenced by ref file: d:\Program Files (x86)\SEGGER\JLink\JLinkDevices.xml (0004ms, 0028ms total)
T2878 016:321 d:\Program Files (x86)\SEGGER\JLink\JLinkDevices.xml evaluated successfully.Device "CORTEX-M0" selected.  returns 0x00 (0061ms, 0085ms total)
T2878 016:384 JLINK_ExecCommand("Device = ARMCM0", ...). Device "CORTEX-M0" selected.  returns 0x00 (0005ms, 0090ms total)
T2878 016:389 JLINK_ExecCommand("DisableConnectionTimeout", ...).   returns 0x01 (0000ms, 0090ms total)
T2878 016:389 JLINK_GetHardwareVersion()  returns 0x17700 (0000ms, 0090ms total)
T2878 016:389 JLINK_GetDLLVersion()  returns 63209 (0000ms, 0090ms total)
T2878 016:389 JLINK_GetFirmwareString(...) (0000ms, 0090ms total)
T2878 016:395 JLINK_GetDLLVersion()  returns 63209 (0000ms, 0090ms total)
T2878 016:395 JLINK_GetCompileDateTime() (0000ms, 0090ms total)
T2878 016:397 JLINK_GetFirmwareString(...) (0000ms, 0090ms total)
T2878 016:399 JLINK_GetHardwareVersion()  returns 0x17700 (0000ms, 0090ms total)
T2878 016:408 JLINK_TIF_Select(JLINKARM_TIF_SWD)  returns 0x00 (0000ms, 0090ms total)
T2878 016:408 JLINK_SetSpeed(500) (0000ms, 0090ms total)
T2878 016:408 JLINK_GetId() >0x10B TIF>Found SW-DP with ID 0x0BB11477 >0x0D TIF> >0x28 TIF> >0x0D TIF> >0x28 TIF> >0x0D TIF> >0x28 TIF> >0x0D TIF> >0x28 TIF> >0x0D TIF> >0x21 TIF> >0x0D TIF> >0x28 TIF>Scanning AP map to find all available APs >0x0D TIF> >0x28 TIF> >0x0D TIF> >0x21 TIF> >0x0D TIF> >0x21 TIF> >0x0D TIF> >0x28 TIF> >0x0D TIF> >0x21 TIF> >0x0D TIF> >0x21 TIF>AP[1]: Stopped AP scan as end of AP map has been reachedAP[0]: AHB-AP (IDR: 0x04770021)Iterating through AP map to find AHB-AP to use
 >0x42 TIF> >0x28 TIF> >0x0D TIF> >0x28 TIF> >0x0D TIF> >0x21 TIF> >0x0D TIF> >0x21 TIF> >0x42 TIF> >0x28 TIF> >0x0D TIF> >0x28 TIF> >0x0D TIF> >0x28 TIF> >0x0D TIF> >0x21 TIF> >0x0D TIF> >0x21 TIF>AP[0]: Core foundAP[0]: AHB-AP ROM base: 0xE00FF000 >0x0D TIF> >0x28 TIF> >0x0D TIF> >0x28 TIF> >0x0D TIF> >0x28 TIF> >0x0D TIF> >0x21 TIF> >0x0D TIF> >0x21 TIF>CPUID register: 0x410CC200. Implementer code: 0x41 (ARM)Found Cortex-M0 r0p0, Little endian. -- Max. mem block: 0x00010D88
 -- CPU_ReadMem(4 bytes @ 0xE000EDF0) -- CPU_WriteMem(4 bytes @ 0xE000EDF0) -- CPU_ReadMem(4 bytes @ 0xE0002000)FPUnit: 4 code (BP) slots and 0 literal slots -- CPU_ReadMem(4 bytes @ 0xE000EDFC) -- CPU_WriteMem(4 bytes @ 0xE000EDFC) -- CPU_ReadMem(4 bytes @ 0xE0001000) -- CPU_WriteMem(4 bytes @ 0xE0001000)CoreSight components:ROMTbl[0] @ E00FF000 -- CPU_ReadMem(16 bytes @ 0xE00FF000) -- CPU_ReadMem(16 bytes @ 0xE000EFF0) -- CPU_ReadMem(16 bytes @ 0xE000EFE0)
ROMTbl[0][0]: E000E000, CID: B105E00D, PID: 000BB008 SCS -- CPU_ReadMem(16 bytes @ 0xE0001FF0) -- CPU_ReadMem(16 bytes @ 0xE0001FE0)ROMTbl[0][1]: E0001000, CID: B105E00D, PID: 000BB00A DWT -- CPU_ReadMem(16 bytes @ 0xE0002FF0) -- CPU_ReadMem(16 bytes @ 0xE0002FE0)ROMTbl[0][2]: E0002000, CID: B105E00D, PID: 000BB00B FPB >0x0D TIF> >0x21 TIF>  returns 0x0BB11477 (0167ms, 0257ms total)
T2878 016:575 JLINK_GetDLLVersion()  returns 63209 (0000ms, 0257ms total)
T2878 016:575 JLINK_CORE_GetFound()  returns 0x60000FF (0000ms, 0257ms total)
T2878 016:575 JLINK_GetDebugInfo(0x100 = JLINKARM_ROM_TABLE_ADDR_INDEX) -- Value=0xE00FF000  returns 0x00 (0000ms, 0257ms total)
T2878 016:577 JLINK_GetDebugInfo(0x100 = JLINKARM_ROM_TABLE_ADDR_INDEX) -- Value=0xE00FF000  returns 0x00 (0000ms, 0257ms total)
T2878 016:577 JLINK_GetDebugInfo(0x101 = JLINKARM_DEBUG_INFO_ETM_ADDR_INDEX) -- Value=0x00000000  returns 0x00 (0000ms, 0257ms total)
T2878 016:577 JLINK_ReadMemEx(0xE0041FF0, 0x0010 Bytes, ..., Flags = 0x02000004) -- CPU_ReadMem(16 bytes @ 0xE0041FF0) - Data: 00 00 00 00 00 00 00 00 00 00 00 00 00 00 00 00  returns 0x10 (0002ms, 0259ms total)
T2878 016:579 JLINK_GetDebugInfo(0x102 = JLINKARM_DEBUG_INFO_MTB_ADDR_INDEX) -- Value=0x00000000  returns 0x00 (0000ms, 0259ms total)
T2878 016:579 JLINK_GetDebugInfo(0x103 = JLINKARM_DEBUG_INFO_TPIU_ADDR_INDEX) -- Value=0x00000000  returns 0x00 (0000ms, 0259ms total)
T2878 016:579 JLINK_ReadMemEx(0xE0040FF0, 0x0010 Bytes, ..., Flags = 0x02000004) -- CPU_ReadMem(16 bytes @ 0xE0040FF0) - Data: 00 00 00 00 00 00 00 00 00 00 00 00 00 00 00 00  returns 0x10 (0001ms, 0260ms total)
T2878 016:580 JLINK_GetDebugInfo(0x104 = JLINKARM_DEBUG_INFO_ITM_ADDR_INDEX) -- Value=0xE0000000  returns 0x00 (0000ms, 0260ms total)
T2878 016:580 JLINK_GetDebugInfo(0x105 = JLINKARM_DEBUG_INFO_DWT_ADDR_INDEX) -- Value=0xE0001000  returns 0x00 (0000ms, 0260ms total)
T2878 016:580 JLINK_GetDebugInfo(0x106 = JLINKARM_DEBUG_INFO_FPB_ADDR_INDEX) -- Value=0xE0002000  returns 0x00 (0000ms, 0260ms total)
T2878 016:580 JLINK_GetDebugInfo(0x107 = JLINKARM_DEBUG_INFO_NVIC_ADDR_INDEX) -- Value=0xE000E000  returns 0x00 (0000ms, 0260ms total)
T2878 016:580 JLINK_GetDebugInfo(0x10C = JLINKARM_DEBUG_INFO_DBG_ADDR_INDEX) -- Value=0xE000EDF0  returns 0x00 (0000ms, 0260ms total)
T2878 016:580 JLINK_GetDebugInfo(0x01 = Unknown) -- Value=0x00000000  returns 0x00 (0000ms, 0260ms total)
T2878 016:580 JLINK_ReadMemU32(0xE000ED00, 0x0001 Items, ...) -- CPU_ReadMem(4 bytes @ 0xE000ED00) - Data: 00 C2 0C 41  returns 0x01 (0002ms, 0262ms total)
T2878 016:582 JLINK_GetDebugInfo(0x10F = JLINKARM_DEBUG_INFO_HAS_CORTEX_M_SECURITY_EXT_INDEX) -- Value=0x00000000  returns 0x00 (0000ms, 0262ms total)
T2878 016:582 JLINK_SetResetType(JLINKARM_CM3_RESET_TYPE_NORMAL)  returns JLINKARM_CM3_RESET_TYPE_NORMAL (0000ms, 0262ms total)
T2878 016:582 JLINK_Reset() -- CPU is running -- CPU_WriteMem(4 bytes @ 0xE000EDF0) -- CPU is running -- CPU_WriteMem(4 bytes @ 0xE000EDFC)Reset: Halt core after reset via DEMCR.VC_CORERESET. >0x35 TIF>Reset: Reset device via AIRCR.SYSRESETREQ. -- CPU is running -- CPU_WriteMem(4 bytes @ 0xE000ED0C) >0x0D TIF> >0x28 TIF> -- CPU_ReadMem(4 bytes @ 0xE000EDF0) -- CPU_ReadMem(4 bytes @ 0xE000EDF0) -- CPU is running -- CPU_WriteMem(4 bytes @ 0xE000EDF0) -- CPU is running -- CPU_WriteMem(4 bytes @ 0xE000EDFC)
 -- CPU_ReadMem(4 bytes @ 0xE000EDF0) -- CPU_WriteMem(4 bytes @ 0xE0002000) -- CPU_ReadMem(4 bytes @ 0xE000EDFC) -- CPU_ReadMem(4 bytes @ 0xE0001000) -- CPU_WriteMem(4 bytes @ 0xE0001000) (0086ms, 0348ms total)
T2878 016:668 JLINK_Halt()  returns 0x00 (0000ms, 0348ms total)
T2878 016:668 JLINK_ReadMemU32(0xE000EDF0, 0x0001 Items, ...) -- CPU_ReadMem(4 bytes @ 0xE000EDF0) - Data: 03 00 03 00  returns 0x01 (0001ms, 0349ms total)
T2878 016:669 JLINK_WriteU32(0xE000EDF0, 0xA05F0003) -- CPU_WriteMem(4 bytes @ 0xE000EDF0)  returns 0x00 (0002ms, 0351ms total)
T2878 016:671 JLINK_WriteU32(0xE000EDFC, 0x01000000) -- CPU_WriteMem(4 bytes @ 0xE000EDFC)  returns 0x00 (0001ms, 0352ms total)
T2878 016:681 JLINK_GetHWStatus(...)  returns 0x00 (0000ms, 0352ms total)
T2878 016:688 JLINK_GetNumBPUnits(Type = 0xFFFFFF00)  returns 0x04 (0000ms, 0352ms total)
T2878 016:688 JLINK_GetNumBPUnits(Type = 0xF0)  returns 0x2000 (0000ms, 0352ms total)
T2878 016:688 JLINK_GetNumWPUnits()  returns 0x01 (0000ms, 0352ms total)
T2878 016:693 JLINK_GetSpeed()  returns 0x1F4 (0000ms, 0352ms total)
T2878 016:697 JLINK_ReadMemU32(0xE000E004, 0x0001 Items, ...) -- CPU_ReadMem(4 bytes @ 0xE000E004) - Data: 00 00 00 00  returns 0x01 (0001ms, 0353ms total)
T2878 016:698 JLINK_Halt()  returns 0x00 (0000ms, 0353ms total)
T2878 016:698 JLINK_IsHalted()  returns TRUE (0000ms, 0353ms total)
T2878 016:701 JLINK_WriteMem(0x20000000, 0x00C8 Bytes, ...) - Data: 00 BE 0A E0 0D 78 2D 06 68 40 08 24 40 00 00 D3 ... -- CPU_WriteMem(200 bytes @ 0x20000000)  returns 0xC8 (0006ms, 0359ms total)
T2878 016:707 JLINK_WriteReg(R0, 0x00000000)  returns 0x00 (0000ms, 0359ms total)
T2878 016:707 JLINK_WriteReg(R1, 0x00B71B00)  returns 0x00 (0000ms, 0359ms total)
T2878 016:707 JLINK_WriteReg(R2, 0x00000001)  returns 0x00 (0000ms, 0359ms total)
T2878 016:707 JLINK_WriteReg(R3, 0x00000000)  returns 0x00 (0000ms, 0359ms total)
T2878 016:708 JLINK_WriteReg(R4, 0x00000000)  returns 0x00 (0000ms, 0360ms total)
T2878 016:708 JLINK_WriteReg(R5, 0x00000000)  returns 0x00 (0000ms, 0360ms total)
T2878 016:708 JLINK_WriteReg(R6, 0x00000000)  returns 0x00 (0000ms, 0360ms total)
T2878 016:708 JLINK_WriteReg(R7, 0x00000000)  returns 0x00 (0000ms, 0360ms total)
T2878 016:708 JLINK_WriteReg(R8, 0x00000000)  returns 0x00 (0000ms, 0360ms total)
T2878 016:708 JLINK_WriteReg(R9, 0x200000C4)  returns 0x00 (0000ms, 0360ms total)
T2878 016:708 JLINK_WriteReg(R10, 0x00000000)  returns 0x00 (0000ms, 0360ms total)
T2878 016:708 JLINK_WriteReg(R11, 0x00000000)  returns 0x00 (0000ms, 0360ms total)
T2878 016:708 JLINK_WriteReg(R12, 0x00000000)  returns 0x00 (0000ms, 0360ms total)
T2878 016:708 JLINK_WriteReg(R13 (SP), 0x20002000)  returns 0x00 (0000ms, 0360ms total)
T2878 016:708 JLINK_WriteReg(R14, 0x20000001)  returns 0x00 (0000ms, 0360ms total)
T2878 016:708 JLINK_WriteReg(R15 (PC), 0x20000050)  returns 0x00 (0000ms, 0360ms total)
T2878 016:708 JLINK_WriteReg(XPSR, 0x01000000)  returns 0x00 (0000ms, 0360ms total)
T2878 016:708 JLINK_WriteReg(MSP, 0x20002000)  returns 0x00 (0000ms, 0360ms total)
T2878 016:708 JLINK_WriteReg(PSP, 0x20002000)  returns 0x00 (0000ms, 0360ms total)
T2878 016:708 JLINK_WriteReg(CFBP, 0x00000000)  returns 0x00 (0000ms, 0360ms total)
T2878 016:708 JLINK_SetBPEx(Addr = 0x20000000, Type = 0xFFFFFFF2) -- CPU_ReadMem(4 bytes @ 0x20000000) -- CPU_WriteMem(4 bytes @ 0x20000000) -- CPU_ReadMem(4 bytes @ 0x20000000) -- CPU_WriteMem(4 bytes @ 0x20000000) -- CPU_ReadMem(2 bytes @ 0x20000000)  returns 0x00000001 (0006ms, 0366ms total)
T2878 016:714 JLINK_Go() -- CPU_WriteMem(2 bytes @ 0x20000000) -- CPU_ReadMem(4 bytes @ 0xE0001000) -- CPU_WriteMem(4 bytes @ 0xE0001000) -- CPU_WriteMem(4 bytes @ 0xE0002008) -- CPU_WriteMem(4 bytes @ 0xE000200C) -- CPU_WriteMem(4 bytes @ 0xE0002010) -- CPU_WriteMem(4 bytes @ 0xE0002014) -- CPU_WriteMem(4 bytes @ 0xE0001004) (0015ms, 0381ms total)
T2878 016:729 JLINK_IsHalted() -- CPU_ReadMem(2 bytes @ 0x20000000)  returns TRUE (0014ms, 0395ms total)
T2878 016:743 JLINK_ReadReg(R15 (PC))  returns 0x20000000 (0000ms, 0381ms total)
T2878 016:743 JLINK_ClrBPEx(BPHandle = 0x00000001)  returns 0x00 (0000ms, 0381ms total)
T2878 016:743 JLINK_ReadReg(R0)  returns 0x00000000 (0000ms, 0381ms total)
T2878 016:743 JLINK_WriteReg(R0, 0x00000000)  returns 0x00 (0000ms, 0381ms total)
T2878 016:743 JLINK_WriteReg(R1, 0x00B71B00)  returns 0x00 (0000ms, 0381ms total)
T2878 016:743 JLINK_WriteReg(R2, 0x00000001)  returns 0x00 (0000ms, 0381ms total)
T2878 016:743 JLINK_WriteReg(R3, 0x00000000)  returns 0x00 (0000ms, 0381ms total)
T2878 016:743 JLINK_WriteReg(R4, 0x00000000)  returns 0x00 (0000ms, 0381ms total)
T2878 016:743 JLINK_WriteReg(R5, 0x00000000)  returns 0x00 (0000ms, 0381ms total)
T2878 016:743 JLINK_WriteReg(R6, 0x00000000)  returns 0x00 (0000ms, 0381ms total)
T2878 016:743 JLINK_WriteReg(R7, 0x00000000)  returns 0x00 (0000ms, 0381ms total)
T2878 016:743 JLINK_WriteReg(R8, 0x00000000)  returns 0x00 (0000ms, 0381ms total)
T2878 016:743 JLINK_WriteReg(R9, 0x200000C4)  returns 0x00 (0000ms, 0381ms total)
T2878 016:743 JLINK_WriteReg(R10, 0x00000000)  returns 0x00 (0000ms, 0381ms total)
T2878 016:743 JLINK_WriteReg(R11, 0x00000000)  returns 0x00 (0000ms, 0381ms total)
T2878 016:743 JLINK_WriteReg(R12, 0x00000000)  returns 0x00 (0000ms, 0381ms total)
T2878 016:744 JLINK_WriteReg(R13 (SP), 0x20002000)  returns 0x00 (0000ms, 0381ms total)
T2878 016:744 JLINK_WriteReg(R14, 0x20000001)  returns 0x00 (0000ms, 0381ms total)
T2878 016:744 JLINK_WriteReg(R15 (PC), 0x20000068)  returns 0x00 (0000ms, 0381ms total)
T2878 016:744 JLINK_WriteReg(XPSR, 0x01000000)  returns 0x00 (0000ms, 0381ms total)
T2878 016:744 JLINK_WriteReg(MSP, 0x20002000)  returns 0x00 (0000ms, 0381ms total)
T2878 016:744 JLINK_WriteReg(PSP, 0x20002000)  returns 0x00 (0000ms, 0381ms total)
T2878 016:744 JLINK_WriteReg(CFBP, 0x00000000)  returns 0x00 (0000ms, 0381ms total)
T2878 016:744 JLINK_SetBPEx(Addr = 0x20000000, Type = 0xFFFFFFF2)  returns 0x00000002 (0000ms, 0381ms total)
T2878 016:744 JLINK_Go() -- CPU_ReadMem(4 bytes @ 0xE0001000) -- CPU_WriteMem(4 bytes @ 0xE0001000) (0007ms, 0388ms total)
T2878 016:751 JLINK_IsHalted()  returns FALSE (0001ms, 0389ms total)
T2878 016:792 JLINK_IsHalted() -- CPU_ReadMem(2 bytes @ 0x20000000)  returns TRUE (0012ms, 0400ms total)
T2878 016:804 JLINK_ReadReg(R15 (PC))  returns 0x20000000 (0000ms, 0388ms total)
T2878 016:804 JLINK_ClrBPEx(BPHandle = 0x00000002)  returns 0x00 (0000ms, 0388ms total)
T2878 016:804 JLINK_ReadReg(R0)  returns 0x00000000 (0000ms, 0388ms total)
T2878 016:857 JLINK_WriteReg(R0, 0x00000001)  returns 0x00 (0000ms, 0388ms total)
T2878 016:857 JLINK_WriteReg(R1, 0x00B71B00)  returns 0x00 (0000ms, 0388ms total)
T2878 016:857 JLINK_WriteReg(R2, 0x00000001)  returns 0x00 (0000ms, 0388ms total)
T2878 016:857 JLINK_WriteReg(R3, 0x00000000)  returns 0x00 (0000ms, 0388ms total)
T2878 016:857 JLINK_WriteReg(R4, 0x00000000)  returns 0x00 (0000ms, 0388ms total)
T2878 016:857 JLINK_WriteReg(R5, 0x00000000)  returns 0x00 (0000ms, 0388ms total)
T2878 016:857 JLINK_WriteReg(R6, 0x00000000)  returns 0x00 (0000ms, 0388ms total)
T2878 016:857 JLINK_WriteReg(R7, 0x00000000)  returns 0x00 (0000ms, 0388ms total)
T2878 016:857 JLINK_WriteReg(R8, 0x00000000)  returns 0x00 (0001ms, 0389ms total)
T2878 016:858 JLINK_WriteReg(R9, 0x200000C4)  returns 0x00 (0000ms, 0389ms total)
T2878 016:858 JLINK_WriteReg(R10, 0x00000000)  returns 0x00 (0000ms, 0389ms total)
T2878 016:858 JLINK_WriteReg(R11, 0x00000000)  returns 0x00 (0000ms, 0389ms total)
T2878 016:858 JLINK_WriteReg(R12, 0x00000000)  returns 0x00 (0000ms, 0389ms total)
T2878 016:858 JLINK_WriteReg(R13 (SP), 0x20002000)  returns 0x00 (0000ms, 0389ms total)
T2878 016:858 JLINK_WriteReg(R14, 0x20000001)  returns 0x00 (0000ms, 0389ms total)
T2878 016:858 JLINK_WriteReg(R15 (PC), 0x2000005C)  returns 0x00 (0000ms, 0389ms total)
T2878 016:858 JLINK_WriteReg(XPSR, 0x01000000)  returns 0x00 (0000ms, 0389ms total)
T2878 016:858 JLINK_WriteReg(MSP, 0x20002000)  returns 0x00 (0000ms, 0389ms total)
T2878 016:858 JLINK_WriteReg(PSP, 0x20002000)  returns 0x00 (0000ms, 0389ms total)
T2878 016:858 JLINK_WriteReg(CFBP, 0x00000000)  returns 0x00 (0000ms, 0389ms total)
T2878 016:858 JLINK_SetBPEx(Addr = 0x20000000, Type = 0xFFFFFFF2)  returns 0x00000003 (0000ms, 0389ms total)
T2878 016:858 JLINK_Go() -- CPU_ReadMem(4 bytes @ 0xE0001000) -- CPU_WriteMem(4 bytes @ 0xE0001000) (0007ms, 0396ms total)
T2878 016:865 JLINK_IsHalted() -- CPU_ReadMem(2 bytes @ 0x20000000)  returns TRUE (0013ms, 0409ms total)
T2878 016:878 JLINK_ReadReg(R15 (PC))  returns 0x20000000 (0000ms, 0396ms total)
T2878 016:878 JLINK_ClrBPEx(BPHandle = 0x00000003)  returns 0x00 (0000ms, 0396ms total)
T2878 016:879 JLINK_ReadReg(R0)  returns 0x00000000 (0000ms, 0397ms total)
T2878 016:881 JLINK_WriteMem(0x20000000, 0x00A8 Bytes, ...) - Data: 00 BE 0A E0 0D 78 2D 06 68 40 08 24 40 00 00 D3 ... -- CPU_WriteMem(168 bytes @ 0x20000000)  returns 0xA8 (0005ms, 0402ms total)
T2878 016:887 JLINK_WriteReg(R0, 0x60000000)  returns 0x00 (0000ms, 0403ms total)
T2878 016:887 JLINK_WriteReg(R1, 0x00B71B00)  returns 0x00 (0000ms, 0403ms total)
T2878 016:887 JLINK_WriteReg(R2, 0x00000001)  returns 0x00 (0000ms, 0403ms total)
T2878 016:887 JLINK_WriteReg(R3, 0x00000000)  returns 0x00 (0001ms, 0404ms total)
T2878 016:888 JLINK_WriteReg(R4, 0x00000000)  returns 0x00 (0000ms, 0404ms total)
T2878 016:888 JLINK_WriteReg(R5, 0x00000000)  returns 0x00 (0000ms, 0404ms total)
T2878 016:888 JLINK_WriteReg(R6, 0x00000000)  returns 0x00 (0000ms, 0404ms total)
T2878 016:888 JLINK_WriteReg(R7, 0x00000000)  returns 0x00 (0000ms, 0404ms total)
T2878 016:889 JLINK_WriteReg(R8, 0x00000000)  returns 0x00 (0000ms, 0405ms total)
T2878 016:889 JLINK_WriteReg(R9, 0x200000A4)  returns 0x00 (0000ms, 0405ms total)
T2878 016:889 JLINK_WriteReg(R10, 0x00000000)  returns 0x00 (0000ms, 0405ms total)
T2878 016:889 JLINK_WriteReg(R11, 0x00000000)  returns 0x00 (0000ms, 0405ms total)
T2878 016:889 JLINK_WriteReg(R12, 0x00000000)  returns 0x00 (0001ms, 0406ms total)
T2878 016:890 JLINK_WriteReg(R13 (SP), 0x20002000)  returns 0x00 (0000ms, 0406ms total)
T2878 016:890 JLINK_WriteReg(R14, 0x20000001)  returns 0x00 (0000ms, 0406ms total)
T2878 016:890 JLINK_WriteReg(R15 (PC), 0x20000050)  returns 0x00 (0000ms, 0406ms total)
T2878 016:890 JLINK_WriteReg(XPSR, 0x01000000)  returns 0x00 (0000ms, 0406ms total)
T2878 016:890 JLINK_WriteReg(MSP, 0x20002000)  returns 0x00 (0001ms, 0407ms total)
T2878 016:891 JLINK_WriteReg(PSP, 0x20002000)  returns 0x00 (0000ms, 0407ms total)
T2878 016:891 JLINK_WriteReg(CFBP, 0x00000000)  returns 0x00 (0000ms, 0407ms total)
T2878 016:891 JLINK_SetBPEx(Addr = 0x20000000, Type = 0xFFFFFFF2) -- CPU_ReadMem(4 bytes @ 0x20000000) -- CPU_WriteMem(4 bytes @ 0x20000000) -- CPU_ReadMem(4 bytes @ 0x20000000) -- CPU_WriteMem(4 bytes @ 0x20000000) -- CPU_ReadMem(2 bytes @ 0x20000000)  returns 0x00000004 (0007ms, 0414ms total)
T2878 016:898 JLINK_Go() -- CPU_WriteMem(2 bytes @ 0x20000000) -- CPU_ReadMem(4 bytes @ 0xE0001000) -- CPU_WriteMem(4 bytes @ 0xE0001000) (0008ms, 0422ms total)
T2878 016:906 JLINK_IsHalted() -- CPU_ReadMem(2 bytes @ 0x20000000)  returns TRUE (0012ms, 0434ms total)
T2878 016:918 JLINK_ReadReg(R15 (PC))  returns 0x20000000 (0000ms, 0422ms total)
T2878 016:918 JLINK_ClrBPEx(BPHandle = 0x00000004)  returns 0x00 (0000ms, 0422ms total)
T2878 016:918 JLINK_ReadReg(R0)  returns 0x00000000 (0000ms, 0422ms total)
T2878 016:919 JLINK_WriteReg(R0, 0x60000000)  returns 0x00 (0000ms, 0422ms total)
T2878 016:919 JLINK_WriteReg(R1, 0x00B71B00)  returns 0x00 (0000ms, 0422ms total)
T2878 016:919 JLINK_WriteReg(R2, 0x00000001)  returns 0x00 (0000ms, 0422ms total)
T2878 016:919 JLINK_WriteReg(R3, 0x00000000)  returns 0x00 (0000ms, 0422ms total)
T2878 016:919 JLINK_WriteReg(R4, 0x00000000)  returns 0x00 (0000ms, 0422ms total)
T2878 016:919 JLINK_WriteReg(R5, 0x00000000)  returns 0x00 (0000ms, 0422ms total)
T2878 016:919 JLINK_WriteReg(R6, 0x00000000)  returns 0x00 (0000ms, 0422ms total)
T2878 016:919 JLINK_WriteReg(R7, 0x00000000)  returns 0x00 (0000ms, 0422ms total)
T2878 016:919 JLINK_WriteReg(R8, 0x00000000)  returns 0x00 (0000ms, 0422ms total)
T2878 016:919 JLINK_WriteReg(R9, 0x200000A4)  returns 0x00 (0000ms, 0422ms total)
T2878 016:919 JLINK_WriteReg(R10, 0x00000000)  returns 0x00 (0000ms, 0422ms total)
T2878 016:919 JLINK_WriteReg(R11, 0x00000000)  returns 0x00 (0000ms, 0422ms total)
T2878 016:919 JLINK_WriteReg(R12, 0x00000000)  returns 0x00 (0000ms, 0422ms total)
T2878 016:919 JLINK_WriteReg(R13 (SP), 0x20002000)  returns 0x00 (0000ms, 0422ms total)
T2878 016:919 JLINK_WriteReg(R14, 0x20000001)  returns 0x00 (0000ms, 0422ms total)
T2878 016:919 JLINK_WriteReg(R15 (PC), 0x20000068)  returns 0x00 (0000ms, 0422ms total)
T2878 016:919 JLINK_WriteReg(XPSR, 0x01000000)  returns 0x00 (0000ms, 0422ms total)
T2878 016:919 JLINK_WriteReg(MSP, 0x20002000)  returns 0x00 (0000ms, 0422ms total)
T2878 016:919 JLINK_WriteReg(PSP, 0x20002000)  returns 0x00 (0000ms, 0422ms total)
T2878 016:920 JLINK_WriteReg(CFBP, 0x00000000)  returns 0x00 (0000ms, 0423ms total)
T2878 016:920 JLINK_SetBPEx(Addr = 0x20000000, Type = 0xFFFFFFF2)  returns 0x00000005 (0000ms, 0423ms total)
T2878 016:920 JLINK_Go() -- CPU_ReadMem(4 bytes @ 0xE0001000) -- CPU_WriteMem(4 bytes @ 0xE0001000) (0006ms, 0429ms total)
T2878 016:926 JLINK_IsHalted()  returns FALSE (0001ms, 0430ms total)
T2878 016:933 JLINK_IsHalted() -- CPU_ReadMem(2 bytes @ 0x20000000)  returns TRUE (0013ms, 0442ms total)
T2878 016:946 JLINK_ReadReg(R15 (PC))  returns 0x20000000 (0000ms, 0429ms total)
T2878 016:946 JLINK_ClrBPEx(BPHandle = 0x00000005)  returns 0x00 (0000ms, 0429ms total)
T2878 016:946 JLINK_ReadReg(R0)  returns 0x00000000 (0000ms, 0429ms total)
T2878 016:997 JLINK_WriteReg(R0, 0x00000001)  returns 0x00 (0000ms, 0429ms total)
T2878 016:997 JLINK_WriteReg(R1, 0x00B71B00)  returns 0x00 (0000ms, 0429ms total)
T2878 016:997 JLINK_WriteReg(R2, 0x00000001)  returns 0x00 (0000ms, 0429ms total)
T2878 016:997 JLINK_WriteReg(R3, 0x00000000)  returns 0x00 (0000ms, 0429ms total)
T2878 016:997 JLINK_WriteReg(R4, 0x00000000)  returns 0x00 (0001ms, 0430ms total)
T2878 016:998 JLINK_WriteReg(R5, 0x00000000)  returns 0x00 (0000ms, 0430ms total)
T2878 016:998 JLINK_WriteReg(R6, 0x00000000)  returns 0x00 (0000ms, 0430ms total)
T2878 016:998 JLINK_WriteReg(R7, 0x00000000)  returns 0x00 (0000ms, 0430ms total)
T2878 016:998 JLINK_WriteReg(R8, 0x00000000)  returns 0x00 (0000ms, 0430ms total)
T2878 016:998 JLINK_WriteReg(R9, 0x200000A4)  returns 0x00 (0000ms, 0430ms total)
T2878 016:998 JLINK_WriteReg(R10, 0x00000000)  returns 0x00 (0000ms, 0430ms total)
T2878 016:998 JLINK_WriteReg(R11, 0x00000000)  returns 0x00 (0000ms, 0430ms total)
T2878 016:998 JLINK_WriteReg(R12, 0x00000000)  returns 0x00 (0000ms, 0430ms total)
T2878 016:998 JLINK_WriteReg(R13 (SP), 0x20002000)  returns 0x00 (0000ms, 0430ms total)
T2878 016:998 JLINK_WriteReg(R14, 0x20000001)  returns 0x00 (0000ms, 0430ms total)
T2878 016:998 JLINK_WriteReg(R15 (PC), 0x2000005C)  returns 0x00 (0000ms, 0430ms total)
T2878 016:998 JLINK_WriteReg(XPSR, 0x01000000)  returns 0x00 (0000ms, 0430ms total)
T2878 016:998 JLINK_WriteReg(MSP, 0x20002000)  returns 0x00 (0000ms, 0430ms total)
T2878 016:998 JLINK_WriteReg(PSP, 0x20002000)  returns 0x00 (0000ms, 0430ms total)
T2878 016:998 JLINK_WriteReg(CFBP, 0x00000000)  returns 0x00 (0000ms, 0430ms total)
T2878 016:998 JLINK_SetBPEx(Addr = 0x20000000, Type = 0xFFFFFFF2)  returns 0x00000006 (0000ms, 0430ms total)
T2878 016:998 JLINK_Go() -- CPU_ReadMem(4 bytes @ 0xE0001000) -- CPU_WriteMem(4 bytes @ 0xE0001000) (0007ms, 0437ms total)
T2878 017:005 JLINK_IsHalted() -- CPU_ReadMem(2 bytes @ 0x20000000)  returns TRUE (0013ms, 0450ms total)
T2878 017:018 JLINK_ReadReg(R15 (PC))  returns 0x20000000 (0000ms, 0437ms total)
T2878 017:018 JLINK_ClrBPEx(BPHandle = 0x00000006)  returns 0x00 (0000ms, 0437ms total)
T2878 017:018 JLINK_ReadReg(R0)  returns 0x00000000 (0000ms, 0437ms total)
T2878 017:022 JLINK_WriteMem(0x20000000, 0x00C8 Bytes, ...) - Data: 00 BE 0A E0 0D 78 2D 06 68 40 08 24 40 00 00 D3 ... -- CPU_WriteMem(200 bytes @ 0x20000000)  returns 0xC8 (0006ms, 0443ms total)
T2878 017:028 JLINK_WriteReg(R0, 0x00000000)  returns 0x00 (0000ms, 0443ms total)
T2878 017:028 JLINK_WriteReg(R1, 0x00B71B00)  returns 0x00 (0000ms, 0443ms total)
T2878 017:028 JLINK_WriteReg(R2, 0x00000002)  returns 0x00 (0000ms, 0443ms total)
T2878 017:028 JLINK_WriteReg(R3, 0x00000000)  returns 0x00 (0000ms, 0443ms total)
T2878 017:028 JLINK_WriteReg(R4, 0x00000000)  returns 0x00 (0000ms, 0443ms total)
T2878 017:028 JLINK_WriteReg(R5, 0x00000000)  returns 0x00 (0000ms, 0443ms total)
T2878 017:028 JLINK_WriteReg(R6, 0x00000000)  returns 0x00 (0000ms, 0443ms total)
T2878 017:028 JLINK_WriteReg(R7, 0x00000000)  returns 0x00 (0000ms, 0443ms total)
T2878 017:028 JLINK_WriteReg(R8, 0x00000000)  returns 0x00 (0000ms, 0443ms total)
T2878 017:028 JLINK_WriteReg(R9, 0x200000C4)  returns 0x00 (0000ms, 0443ms total)
T2878 017:028 JLINK_WriteReg(R10, 0x00000000)  returns 0x00 (0001ms, 0444ms total)
T2878 017:029 JLINK_WriteReg(R11, 0x00000000)  returns 0x00 (0000ms, 0444ms total)
T2878 017:029 JLINK_WriteReg(R12, 0x00000000)  returns 0x00 (0000ms, 0444ms total)
T2878 017:029 JLINK_WriteReg(R13 (SP), 0x20002000)  returns 0x00 (0000ms, 0444ms total)
T2878 017:029 JLINK_WriteReg(R14, 0x20000001)  returns 0x00 (0000ms, 0444ms total)
T2878 017:029 JLINK_WriteReg(R15 (PC), 0x20000050)  returns 0x00 (0000ms, 0444ms total)
T2878 017:029 JLINK_WriteReg(XPSR, 0x01000000)  returns 0x00 (0000ms, 0444ms total)
T2878 017:029 JLINK_WriteReg(MSP, 0x20002000)  returns 0x00 (0000ms, 0444ms total)
T2878 017:029 JLINK_WriteReg(PSP, 0x20002000)  returns 0x00 (0000ms, 0444ms total)
T2878 017:029 JLINK_WriteReg(CFBP, 0x00000000)  returns 0x00 (0000ms, 0444ms total)
T2878 017:029 JLINK_SetBPEx(Addr = 0x20000000, Type = 0xFFFFFFF2) -- CPU_ReadMem(4 bytes @ 0x20000000) -- CPU_WriteMem(4 bytes @ 0x20000000) -- CPU_ReadMem(4 bytes @ 0x20000000) -- CPU_WriteMem(4 bytes @ 0x20000000) -- CPU_ReadMem(2 bytes @ 0x20000000)  returns 0x00000007 (0004ms, 0448ms total)
T2878 017:033 JLINK_Go() -- CPU_WriteMem(2 bytes @ 0x20000000) -- CPU_ReadMem(4 bytes @ 0xE0001000) -- CPU_WriteMem(4 bytes @ 0xE0001000) (0008ms, 0456ms total)
T2878 017:041 JLINK_IsHalted() -- CPU_ReadMem(2 bytes @ 0x20000000)  returns TRUE (0011ms, 0467ms total)
T2878 017:052 JLINK_ReadReg(R15 (PC))  returns 0x20000000 (0000ms, 0456ms total)
T2878 017:053 JLINK_ClrBPEx(BPHandle = 0x00000007)  returns 0x00 (0000ms, 0457ms total)
T2878 017:053 JLINK_ReadReg(R0)  returns 0x00000000 (0000ms, 0457ms total)
T2878 017:053 JLINK_WriteMem(0x200000C8, 0x0338 Bytes, ...) - Data: 00 02 00 20 C1 00 00 00 00 00 00 00 CD 00 00 00 ... -- CPU_WriteMem(824 bytes @ 0x200000C8)  returns 0x338 (0022ms, 0479ms total)
T2878 017:075 JLINK_WriteMem(0x20000400, 0x0400 Bytes, ...) - Data: 22 79 4F 2A 05 D1 62 79 54 2A 02 D1 A2 79 20 2A ... -- CPU_WriteMem(1024 bytes @ 0x20000400)  returns 0x400 (0026ms, 0505ms total)
T2878 017:101 JLINK_WriteMem(0x20000800, 0x0400 Bytes, ...) - Data: 0C E0 68 68 01 70 68 68 42 70 68 68 2C 49 80 1C ... -- CPU_WriteMem(1024 bytes @ 0x20000800)  returns 0x400 (0026ms, 0531ms total)
T2878 017:127 JLINK_WriteMem(0x20000C00, 0x0400 Bytes, ...) - Data: 00 00 00 00 00 00 00 00 00 00 00 00 00 00 00 00 ... -- CPU_WriteMem(1024 bytes @ 0x20000C00)  returns 0x400 (0026ms, 0557ms total)
T2878 017:153 JLINK_WriteMem(0x20001000, 0x00C8 Bytes, ...) - Data: 00 00 00 00 00 00 00 00 00 00 00 00 00 00 00 00 ... -- CPU_WriteMem(200 bytes @ 0x20001000)  returns 0xC8 (0007ms, 0564ms total)
T2878 017:160 JLINK_WriteReg(R0, 0x00000000)  returns 0x00 (0000ms, 0564ms total)
T2878 017:160 JLINK_WriteReg(R1, 0x00001000)  returns 0x00 (0000ms, 0564ms total)
T2878 017:160 JLINK_WriteReg(R2, 0x200000C8)  returns 0x00 (0000ms, 0564ms total)
T2878 017:160 JLINK_WriteReg(R3, 0x00000000)  returns 0x00 (0000ms, 0564ms total)
T2878 017:160 JLINK_WriteReg(R4, 0x00000000)  returns 0x00 (0000ms, 0564ms total)
T2878 017:160 JLINK_WriteReg(R5, 0x00000000)  returns 0x00 (0000ms, 0564ms total)
T2878 017:160 JLINK_WriteReg(R6, 0x00000000)  returns 0x00 (0000ms, 0564ms total)
T2878 017:160 JLINK_WriteReg(R7, 0x00000000)  returns 0x00 (0000ms, 0564ms total)
T2878 017:160 JLINK_WriteReg(R8, 0x00000000)  returns 0x00 (0000ms, 0564ms total)
T2878 017:160 JLINK_WriteReg(R9, 0x200000C4)  returns 0x00 (0000ms, 0564ms total)
T2878 017:160 JLINK_WriteReg(R10, 0x00000000)  returns 0x00 (0000ms, 0564ms total)
T2878 017:160 JLINK_WriteReg(R11, 0x00000000)  returns 0x00 (0000ms, 0564ms total)
T2878 017:160 JLINK_WriteReg(R12, 0x00000000)  returns 0x00 (0001ms, 0565ms total)
T2878 017:161 JLINK_WriteReg(R13 (SP), 0x20002000)  returns 0x00 (0000ms, 0565ms total)
T2878 017:161 JLINK_WriteReg(R14, 0x20000001)  returns 0x00 (0000ms, 0565ms total)
T2878 017:161 JLINK_WriteReg(R15 (PC), 0x2000008E)  returns 0x00 (0000ms, 0565ms total)
T2878 017:161 JLINK_WriteReg(XPSR, 0x01000000)  returns 0x00 (0000ms, 0565ms total)
T2878 017:161 JLINK_WriteReg(MSP, 0x20002000)  returns 0x00 (0000ms, 0565ms total)
T2878 017:161 JLINK_WriteReg(PSP, 0x20002000)  returns 0x00 (0000ms, 0565ms total)
T2878 017:161 JLINK_WriteReg(CFBP, 0x00000000)  returns 0x00 (0000ms, 0565ms total)
T2878 017:161 JLINK_SetBPEx(Addr = 0x20000000, Type = 0xFFFFFFF2)  returns 0x00000008 (0000ms, 0565ms total)
T2878 017:161 JLINK_Go() -- CPU_ReadMem(4 bytes @ 0xE0001000) -- CPU_WriteMem(4 bytes @ 0xE0001000) (0007ms, 0572ms total)
T2878 017:168 JLINK_IsHalted()  returns FALSE (0001ms, 0573ms total)
T2878 017:239 JLINK_IsHalted() -- CPU_ReadMem(2 bytes @ 0x20000000)  returns TRUE (0011ms, 0583ms total)
T2878 017:250 JLINK_ReadReg(R15 (PC))  returns 0x20000000 (0000ms, 0572ms total)
T2878 017:250 JLINK_ClrBPEx(BPHandle = 0x00000008)  returns 0x00 (0000ms, 0572ms total)
T2878 017:250 JLINK_ReadReg(R0)  returns 0x00000000 (0000ms, 0572ms total)
T2878 017:251 JLINK_WriteMem(0x200000C8, 0x0338 Bytes, ...) - Data: 10 B5 05 48 00 78 00 28 02 D0 FF F7 EB FA 10 BD ... -- CPU_WriteMem(824 bytes @ 0x200000C8)  returns 0x338 (0021ms, 0593ms total)
T2878 017:272 JLINK_WriteMem(0x20000400, 0x0400 Bytes, ...) - Data: AC 42 01 D0 00 F0 60 F8 14 5C 61 18 40 1C C0 B2 ... -- CPU_WriteMem(1024 bytes @ 0x20000400)  returns 0x400 (0026ms, 0619ms total)
T2878 017:298 JLINK_WriteMem(0x20000800, 0x0400 Bytes, ...) - Data: 00 00 00 00 00 00 00 00 00 00 00 00 00 00 00 00 ... -- CPU_WriteMem(1024 bytes @ 0x20000800)  returns 0x400 (0026ms, 0645ms total)
T2878 017:324 JLINK_WriteMem(0x20000C00, 0x0400 Bytes, ...) - Data: 00 00 00 00 00 00 00 00 00 00 00 00 00 00 00 00 ... -- CPU_WriteMem(1024 bytes @ 0x20000C00)  returns 0x400 (0026ms, 0671ms total)
T2878 017:350 JLINK_WriteMem(0x20001000, 0x00C8 Bytes, ...) - Data: 00 00 00 00 00 00 00 00 00 00 00 00 00 00 00 00 ... -- CPU_WriteMem(200 bytes @ 0x20001000)  returns 0xC8 (0006ms, 0677ms total)
T2878 017:356 JLINK_WriteReg(R0, 0x00001000)  returns 0x00 (0001ms, 0678ms total)
T2878 017:357 JLINK_WriteReg(R1, 0x00001000)  returns 0x00 (0000ms, 0678ms total)
T2878 017:357 JLINK_WriteReg(R2, 0x200000C8)  returns 0x00 (0000ms, 0678ms total)
T2878 017:357 JLINK_WriteReg(R3, 0x00000000)  returns 0x00 (0000ms, 0678ms total)
T2878 017:357 JLINK_WriteReg(R4, 0x00000000)  returns 0x00 (0000ms, 0678ms total)
T2878 017:357 JLINK_WriteReg(R5, 0x00000000)  returns 0x00 (0000ms, 0678ms total)
T2878 017:357 JLINK_WriteReg(R6, 0x00000000)  returns 0x00 (0000ms, 0678ms total)
T2878 017:357 JLINK_WriteReg(R7, 0x00000000)  returns 0x00 (0000ms, 0678ms total)
T2878 017:357 JLINK_WriteReg(R8, 0x00000000)  returns 0x00 (0000ms, 0678ms total)
T2878 017:357 JLINK_WriteReg(R9, 0x200000C4)  returns 0x00 (0000ms, 0678ms total)
T2878 017:357 JLINK_WriteReg(R10, 0x00000000)  returns 0x00 (0000ms, 0678ms total)
T2878 017:357 JLINK_WriteReg(R11, 0x00000000)  returns 0x00 (0000ms, 0678ms total)
T2878 017:357 JLINK_WriteReg(R12, 0x00000000)  returns 0x00 (0000ms, 0678ms total)
T2878 017:357 JLINK_WriteReg(R13 (SP), 0x20002000)  returns 0x00 (0000ms, 0678ms total)
T2878 017:357 JLINK_WriteReg(R14, 0x20000001)  returns 0x00 (0000ms, 0678ms total)
T2878 017:357 JLINK_WriteReg(R15 (PC), 0x2000008E)  returns 0x00 (0000ms, 0678ms total)
T2878 017:357 JLINK_WriteReg(XPSR, 0x01000000)  returns 0x00 (0000ms, 0678ms total)
T2878 017:357 JLINK_WriteReg(MSP, 0x20002000)  returns 0x00 (0000ms, 0678ms total)
T2878 017:357 JLINK_WriteReg(PSP, 0x20002000)  returns 0x00 (0001ms, 0679ms total)
T2878 017:358 JLINK_WriteReg(CFBP, 0x00000000)  returns 0x00 (0000ms, 0679ms total)
T2878 017:358 JLINK_SetBPEx(Addr = 0x20000000, Type = 0xFFFFFFF2)  returns 0x00000009 (0000ms, 0679ms total)
T2878 017:358 JLINK_Go() -- CPU_ReadMem(4 bytes @ 0xE0001000) -- CPU_WriteMem(4 bytes @ 0xE0001000) (0005ms, 0684ms total)
T2878 017:363 JLINK_IsHalted()  returns FALSE (0001ms, 0685ms total)
T2878 017:368 JLINK_IsHalted()  returns FALSE (0000ms, 0684ms total)
T2878 017:371 JLINK_IsHalted()  returns FALSE (0001ms, 0685ms total)
T2878 017:374 JLINK_IsHalted() -- CPU_ReadMem(2 bytes @ 0x20000000)  returns TRUE (0012ms, 0696ms total)
T2878 017:386 JLINK_ReadReg(R15 (PC))  returns 0x20000000 (0000ms, 0684ms total)
T2878 017:386 JLINK_ClrBPEx(BPHandle = 0x00000009)  returns 0x00 (0000ms, 0684ms total)
T2878 017:386 JLINK_ReadReg(R0)  returns 0x00000000 (0000ms, 0684ms total)
T2878 017:387 JLINK_WriteMem(0x200000C8, 0x0338 Bytes, ...) - Data: 4A 75 6C 20 20 36 20 32 30 32 30 31 38 3A 31 32 ... -- CPU_WriteMem(824 bytes @ 0x200000C8)  returns 0x338 (0020ms, 0704ms total)
T2878 017:407 JLINK_WriteMem(0x20000400, 0x0400 Bytes, ...) - Data: 01 70 20 79 DF 21 08 40 20 71 06 49 10 20 08 60 ... -- CPU_WriteMem(1024 bytes @ 0x20000400)  returns 0x400 (0026ms, 0730ms total)
T2878 017:433 JLINK_WriteMem(0x20000800, 0x0400 Bytes, ...) - Data: 93 43 0B 43 C3 61 70 47 00 E4 00 E0 00 ED 00 E0 ... -- CPU_WriteMem(1024 bytes @ 0x20000800)  returns 0x400 (0027ms, 0757ms total)
T2878 017:460 JLINK_WriteMem(0x20000C00, 0x0400 Bytes, ...) - Data: 20 7A 40 08 40 00 20 72 E4 48 E5 4F 41 68 3E 78 ... -- CPU_WriteMem(1024 bytes @ 0x20000C00)  returns 0x400 (0027ms, 0784ms total)
T2878 017:487 JLINK_WriteMem(0x20001000, 0x00C8 Bytes, ...) - Data: 80 22 0B A1 0C 48 00 F0 3B FD 00 F0 AD FC FE E7 ... -- CPU_WriteMem(200 bytes @ 0x20001000)  returns 0xC8 (0006ms, 0790ms total)
T2878 017:493 JLINK_WriteReg(R0, 0x00002000)  returns 0x00 (0000ms, 0790ms total)
T2878 017:493 JLINK_WriteReg(R1, 0x00001000)  returns 0x00 (0000ms, 0790ms total)
T2878 017:493 JLINK_WriteReg(R2, 0x200000C8)  returns 0x00 (0000ms, 0790ms total)
T2878 017:493 JLINK_WriteReg(R3, 0x00000000)  returns 0x00 (0000ms, 0790ms total)
T2878 017:493 JLINK_WriteReg(R4, 0x00000000)  returns 0x00 (0000ms, 0790ms total)
T2878 017:493 JLINK_WriteReg(R5, 0x00000000)  returns 0x00 (0000ms, 0790ms total)
T2878 017:493 JLINK_WriteReg(R6, 0x00000000)  returns 0x00 (0000ms, 0790ms total)
T2878 017:493 JLINK_WriteReg(R7, 0x00000000)  returns 0x00 (0000ms, 0790ms total)
T2878 017:493 JLINK_WriteReg(R8, 0x00000000)  returns 0x00 (0000ms, 0790ms total)
T2878 017:493 JLINK_WriteReg(R9, 0x200000C4)  returns 0x00 (0000ms, 0790ms total)
T2878 017:493 JLINK_WriteReg(R10, 0x00000000)  returns 0x00 (0000ms, 0790ms total)
T2878 017:493 JLINK_WriteReg(R11, 0x00000000)  returns 0x00 (0000ms, 0790ms total)
T2878 017:493 JLINK_WriteReg(R12, 0x00000000)  returns 0x00 (0000ms, 0790ms total)
T2878 017:493 JLINK_WriteReg(R13 (SP), 0x20002000)  returns 0x00 (0000ms, 0790ms total)
T2878 017:493 JLINK_WriteReg(R14, 0x20000001)  returns 0x00 (0000ms, 0790ms total)
T2878 017:493 JLINK_WriteReg(R15 (PC), 0x2000008E)  returns 0x00 (0000ms, 0790ms total)
T2878 017:493 JLINK_WriteReg(XPSR, 0x01000000)  returns 0x00 (0000ms, 0790ms total)
T2878 017:493 JLINK_WriteReg(MSP, 0x20002000)  returns 0x00 (0001ms, 0791ms total)
T2878 017:494 JLINK_WriteReg(PSP, 0x20002000)  returns 0x00 (0000ms, 0791ms total)
T2878 017:494 JLINK_WriteReg(CFBP, 0x00000000)  returns 0x00 (0000ms, 0791ms total)
T2878 017:494 JLINK_SetBPEx(Addr = 0x20000000, Type = 0xFFFFFFF2)  returns 0x0000000A (0000ms, 0791ms total)
T2878 017:494 JLINK_Go() -- CPU_ReadMem(4 bytes @ 0xE0001000) -- CPU_WriteMem(4 bytes @ 0xE0001000) (0006ms, 0797ms total)
T2878 017:500 JLINK_IsHalted()  returns FALSE (0001ms, 0798ms total)
T2878 017:504 JLINK_IsHalted()  returns FALSE (0001ms, 0798ms total)
T2878 017:507 JLINK_IsHalted()  returns FALSE (0001ms, 0798ms total)
T2878 017:510 JLINK_IsHalted()  returns FALSE (0001ms, 0798ms total)
T2878 017:513 JLINK_IsHalted()  returns FALSE (0001ms, 0798ms total)
T2878 017:516 JLINK_IsHalted()  returns FALSE (0001ms, 0798ms total)
T2878 017:519 JLINK_IsHalted()  returns FALSE (0001ms, 0798ms total)
T2878 017:522 JLINK_IsHalted()  returns FALSE (0001ms, 0798ms total)
T2878 017:525 JLINK_IsHalted()  returns FALSE (0001ms, 0798ms total)
T2878 017:528 JLINK_IsHalted()  returns FALSE (0001ms, 0798ms total)
T2878 017:531 JLINK_IsHalted()  returns FALSE (0001ms, 0798ms total)
T2878 017:534 JLINK_IsHalted()  returns FALSE (0001ms, 0798ms total)
T2878 017:536 JLINK_IsHalted()  returns FALSE (0001ms, 0798ms total)
T2878 017:539 JLINK_IsHalted()  returns FALSE (0001ms, 0798ms total)
T2878 017:542 JLINK_IsHalted()  returns FALSE (0001ms, 0798ms total)
T2878 017:545 JLINK_IsHalted()  returns FALSE (0001ms, 0798ms total)
T2878 017:548 JLINK_IsHalted()  returns FALSE (0001ms, 0798ms total)
T2878 017:551 JLINK_IsHalted()  returns FALSE (0001ms, 0798ms total)
T2878 017:554 JLINK_IsHalted()  returns FALSE (0001ms, 0798ms total)
T2878 017:558 JLINK_IsHalted()  returns FALSE (0001ms, 0798ms total)
T2878 017:562 JLINK_IsHalted()  returns FALSE (0001ms, 0798ms total)
T2878 017:565 JLINK_IsHalted()  returns FALSE (0001ms, 0798ms total)
T2878 017:568 JLINK_IsHalted()  returns FALSE (0001ms, 0798ms total)
T2878 017:571 JLINK_IsHalted()  returns FALSE (0001ms, 0798ms total)
T2878 017:573 JLINK_IsHalted()  returns FALSE (0001ms, 0798ms total)
T2878 017:576 JLINK_IsHalted()  returns FALSE (0001ms, 0798ms total)
T2878 017:580 JLINK_IsHalted()  returns FALSE (0001ms, 0798ms total)
T2878 017:583 JLINK_IsHalted()  returns FALSE (0001ms, 0798ms total)
T2878 017:586 JLINK_IsHalted() -- CPU_ReadMem(2 bytes @ 0x20000000)  returns TRUE (0013ms, 0810ms total)
T2878 017:599 JLINK_ReadReg(R15 (PC))  returns 0x20000000 (0000ms, 0797ms total)
T2878 017:599 JLINK_ClrBPEx(BPHandle = 0x0000000A)  returns 0x00 (0000ms, 0797ms total)
T2878 017:599 JLINK_ReadReg(R0)  returns 0x00000000 (0000ms, 0797ms total)
T2878 017:599 JLINK_WriteMem(0x200000C8, 0x0338 Bytes, ...) - Data: FF F7 2E FB 05 20 FF F7 9F FB 21 20 FF F7 28 FB ... -- CPU_WriteMem(824 bytes @ 0x200000C8)  returns 0x338 (0022ms, 0819ms total)
T2878 017:621 JLINK_WriteMem(0x20000400, 0x0400 Bytes, ...) - Data: 01 D2 00 F0 53 FA 70 BD B8 11 00 20 00 03 00 20 ... -- CPU_WriteMem(1024 bytes @ 0x20000400)  returns 0x400 (0026ms, 0845ms total)
T2878 017:647 JLINK_WriteMem(0x20000800, 0x0400 Bytes, ...) - Data: 02 D0 02 46 08 32 02 E0 02 69 04 E0 1A 46 53 68 ... -- CPU_WriteMem(1024 bytes @ 0x20000800)  returns 0x400 (0026ms, 0871ms total)
T2878 017:673 JLINK_WriteMem(0x20000C00, 0x0400 Bytes, ...) - Data: FF F7 D2 FD E0 6A 29 69 88 42 00 D9 28 61 14 21 ... -- CPU_WriteMem(1024 bytes @ 0x20000C00)  returns 0x400 (0026ms, 0897ms total)
T2878 017:699 JLINK_WriteMem(0x20001000, 0x00C8 Bytes, ...) - Data: 00 00 00 00 00 00 00 00 00 00 00 00 00 00 00 00 ... -- CPU_WriteMem(200 bytes @ 0x20001000)  returns 0xC8 (0006ms, 0903ms total)
T2878 017:705 JLINK_WriteReg(R0, 0x00003000)  returns 0x00 (0000ms, 0903ms total)
T2878 017:705 JLINK_WriteReg(R1, 0x00001000)  returns 0x00 (0000ms, 0903ms total)
T2878 017:705 JLINK_WriteReg(R2, 0x200000C8)  returns 0x00 (0000ms, 0903ms total)
T2878 017:705 JLINK_WriteReg(R3, 0x00000000)  returns 0x00 (0000ms, 0903ms total)
T2878 017:705 JLINK_WriteReg(R4, 0x00000000)  returns 0x00 (0000ms, 0903ms total)
T2878 017:705 JLINK_WriteReg(R5, 0x00000000)  returns 0x00 (0000ms, 0903ms total)
T2878 017:705 JLINK_WriteReg(R6, 0x00000000)  returns 0x00 (0000ms, 0903ms total)
T2878 017:705 JLINK_WriteReg(R7, 0x00000000)  returns 0x00 (0000ms, 0903ms total)
T2878 017:705 JLINK_WriteReg(R8, 0x00000000)  returns 0x00 (0000ms, 0903ms total)
T2878 017:705 JLINK_WriteReg(R9, 0x200000C4)  returns 0x00 (0000ms, 0903ms total)
T2878 017:705 JLINK_WriteReg(R10, 0x00000000)  returns 0x00 (0001ms, 0904ms total)
T2878 017:706 JLINK_WriteReg(R11, 0x00000000)  returns 0x00 (0000ms, 0904ms total)
T2878 017:706 JLINK_WriteReg(R12, 0x00000000)  returns 0x00 (0000ms, 0904ms total)
T2878 017:706 JLINK_WriteReg(R13 (SP), 0x20002000)  returns 0x00 (0000ms, 0904ms total)
T2878 017:706 JLINK_WriteReg(R14, 0x20000001)  returns 0x00 (0000ms, 0904ms total)
T2878 017:706 JLINK_WriteReg(R15 (PC), 0x2000008E)  returns 0x00 (0000ms, 0904ms total)
T2878 017:706 JLINK_WriteReg(XPSR, 0x01000000)  returns 0x00 (0000ms, 0904ms total)
T2878 017:706 JLINK_WriteReg(MSP, 0x20002000)  returns 0x00 (0000ms, 0904ms total)
T2878 017:706 JLINK_WriteReg(PSP, 0x20002000)  returns 0x00 (0000ms, 0904ms total)
T2878 017:706 JLINK_WriteReg(CFBP, 0x00000000)  returns 0x00 (0000ms, 0904ms total)
T2878 017:706 JLINK_SetBPEx(Addr = 0x20000000, Type = 0xFFFFFFF2)  returns 0x0000000B (0000ms, 0904ms total)
T2878 017:706 JLINK_Go() -- CPU_ReadMem(4 bytes @ 0xE0001000) -- CPU_WriteMem(4 bytes @ 0xE0001000) (0005ms, 0909ms total)
T2878 017:712 JLINK_IsHalted()  returns FALSE (0001ms, 0911ms total)
T2878 017:724 JLINK_IsHalted()  returns FALSE (0001ms, 0911ms total)
T2878 017:727 JLINK_IsHalted()  returns FALSE (0001ms, 0911ms total)
T2878 017:730 JLINK_IsHalted()  returns FALSE (0001ms, 0911ms total)
T2878 017:732 JLINK_IsHalted()  returns FALSE (0001ms, 0911ms total)
T2878 017:735 JLINK_IsHalted()  returns FALSE (0001ms, 0911ms total)
T2878 017:738 JLINK_IsHalted()  returns FALSE (0001ms, 0911ms total)
T2878 017:741 JLINK_IsHalted()  returns FALSE (0001ms, 0911ms total)
T2878 017:744 JLINK_IsHalted()  returns FALSE (0001ms, 0911ms total)
T2878 017:747 JLINK_IsHalted()  returns FALSE (0001ms, 0911ms total)
T2878 017:750 JLINK_IsHalted()  returns FALSE (0001ms, 0911ms total)
T2878 017:753 JLINK_IsHalted()  returns FALSE (0001ms, 0911ms total)
T2878 017:756 JLINK_IsHalted()  returns FALSE (0001ms, 0911ms total)
T2878 017:759 JLINK_IsHalted()  returns FALSE (0001ms, 0911ms total)
T2878 017:762 JLINK_IsHalted()  returns FALSE (0001ms, 0911ms total)
T2878 017:765 JLINK_IsHalted()  returns FALSE (0001ms, 0911ms total)
T2878 017:768 JLINK_IsHalted()  returns FALSE (0001ms, 0911ms total)
T2878 017:771 JLINK_IsHalted()  returns FALSE (0001ms, 0911ms total)
T2878 017:774 JLINK_IsHalted() -- CPU_ReadMem(2 bytes @ 0x20000000)  returns TRUE (0013ms, 0923ms total)
T2878 017:787 JLINK_ReadReg(R15 (PC))  returns 0x20000000 (0000ms, 0910ms total)
T2878 017:787 JLINK_ClrBPEx(BPHandle = 0x0000000B)  returns 0x00 (0000ms, 0910ms total)
T2878 017:787 JLINK_ReadReg(R0)  returns 0x00000000 (0000ms, 0910ms total)
T2878 017:787 JLINK_WriteMem(0x200000C8, 0x0338 Bytes, ...) - Data: 00 00 00 00 00 00 00 00 00 00 00 00 00 00 00 00 ... -- CPU_WriteMem(824 bytes @ 0x200000C8)  returns 0x338 (0021ms, 0931ms total)
T2878 017:808 JLINK_WriteMem(0x20000400, 0x0400 Bytes, ...) - Data: 00 00 00 00 00 00 00 00 00 00 00 00 00 00 00 00 ... -- CPU_WriteMem(1024 bytes @ 0x20000400)  returns 0x400 (0026ms, 0957ms total)
T2878 017:835 JLINK_WriteMem(0x20000800, 0x0400 Bytes, ...) - Data: 00 00 00 00 00 00 00 00 00 00 00 00 00 00 00 00 ... -- CPU_WriteMem(1024 bytes @ 0x20000800)  returns 0x400 (0026ms, 0983ms total)
T2878 017:861 JLINK_WriteMem(0x20000C00, 0x0400 Bytes, ...) - Data: 00 00 00 00 00 00 00 00 00 00 00 00 00 00 00 00 ... -- CPU_WriteMem(1024 bytes @ 0x20000C00)  returns 0x400 (0026ms, 1009ms total)
T2878 017:887 JLINK_WriteMem(0x20001000, 0x00C8 Bytes, ...) - Data: 00 00 00 00 00 00 00 00 00 00 00 00 00 00 00 00 ... -- CPU_WriteMem(200 bytes @ 0x20001000)  returns 0xC8 (0007ms, 1016ms total)
T2878 017:894 JLINK_WriteReg(R0, 0x00004000)  returns 0x00 (0000ms, 1016ms total)
T2878 017:894 JLINK_WriteReg(R1, 0x00001000)  returns 0x00 (0000ms, 1016ms total)
T2878 017:894 JLINK_WriteReg(R2, 0x200000C8)  returns 0x00 (0000ms, 1016ms total)
T2878 017:894 JLINK_WriteReg(R3, 0x00000000)  returns 0x00 (0000ms, 1016ms total)
T2878 017:894 JLINK_WriteReg(R4, 0x00000000)  returns 0x00 (0000ms, 1016ms total)
T2878 017:894 JLINK_WriteReg(R5, 0x00000000)  returns 0x00 (0000ms, 1016ms total)
T2878 017:894 JLINK_WriteReg(R6, 0x00000000)  returns 0x00 (0000ms, 1016ms total)
T2878 017:894 JLINK_WriteReg(R7, 0x00000000)  returns 0x00 (0000ms, 1016ms total)
T2878 017:894 JLINK_WriteReg(R8, 0x00000000)  returns 0x00 (0000ms, 1016ms total)
T2878 017:894 JLINK_WriteReg(R9, 0x200000C4)  returns 0x00 (0000ms, 1016ms total)
T2878 017:894 JLINK_WriteReg(R10, 0x00000000)  returns 0x00 (0000ms, 1016ms total)
T2878 017:894 JLINK_WriteReg(R11, 0x00000000)  returns 0x00 (0000ms, 1016ms total)
T2878 017:894 JLINK_WriteReg(R12, 0x00000000)  returns 0x00 (0000ms, 1016ms total)
T2878 017:894 JLINK_WriteReg(R13 (SP), 0x20002000)  returns 0x00 (0001ms, 1017ms total)
T2878 017:895 JLINK_WriteReg(R14, 0x20000001)  returns 0x00 (0000ms, 1017ms total)
T2878 017:895 JLINK_WriteReg(R15 (PC), 0x2000008E)  returns 0x00 (0000ms, 1017ms total)
T2878 017:895 JLINK_WriteReg(XPSR, 0x01000000)  returns 0x00 (0000ms, 1017ms total)
T2878 017:895 JLINK_WriteReg(MSP, 0x20002000)  returns 0x00 (0000ms, 1017ms total)
T2878 017:895 JLINK_WriteReg(PSP, 0x20002000)  returns 0x00 (0000ms, 1017ms total)
T2878 017:895 JLINK_WriteReg(CFBP, 0x00000000)  returns 0x00 (0000ms, 1017ms total)
T2878 017:895 JLINK_SetBPEx(Addr = 0x20000000, Type = 0xFFFFFFF2)  returns 0x0000000C (0000ms, 1017ms total)
T2878 017:895 JLINK_Go() -- CPU_ReadMem(4 bytes @ 0xE0001000) -- CPU_WriteMem(4 bytes @ 0xE0001000) (0007ms, 1024ms total)
T2878 017:902 JLINK_IsHalted()  returns FALSE (0002ms, 1026ms total)
T2878 017:907 JLINK_IsHalted() -- CPU_ReadMem(2 bytes @ 0x20000000)  returns TRUE (0012ms, 1036ms total)
T2878 017:919 JLINK_ReadReg(R15 (PC))  returns 0x20000000 (0000ms, 1024ms total)
T2878 017:919 JLINK_ClrBPEx(BPHandle = 0x0000000C)  returns 0x00 (0000ms, 1024ms total)
T2878 017:919 JLINK_ReadReg(R0)  returns 0x00000000 (0001ms, 1025ms total)
T2878 017:920 JLINK_WriteMem(0x200000C8, 0x0338 Bytes, ...) - Data: 00 00 00 00 00 00 00 00 00 00 00 00 00 00 00 00 ... -- CPU_WriteMem(824 bytes @ 0x200000C8)  returns 0x338 (0021ms, 1046ms total)
T2878 017:941 JLINK_WriteMem(0x20000400, 0x0400 Bytes, ...) - Data: 00 00 00 00 00 00 00 00 00 00 00 00 00 00 00 00 ... -- CPU_WriteMem(1024 bytes @ 0x20000400)  returns 0x400 (0026ms, 1072ms total)
T2878 017:967 JLINK_WriteMem(0x20000800, 0x0400 Bytes, ...) - Data: 00 00 00 00 00 00 00 00 00 00 00 00 00 00 00 00 ... -- CPU_WriteMem(1024 bytes @ 0x20000800)  returns 0x400 (0026ms, 1098ms total)
T2878 017:993 JLINK_WriteMem(0x20000C00, 0x0400 Bytes, ...) - Data: 00 00 00 00 00 00 00 00 00 00 00 00 00 00 00 00 ... -- CPU_WriteMem(1024 bytes @ 0x20000C00)  returns 0x400 (0027ms, 1125ms total)
T2878 018:020 JLINK_WriteMem(0x20001000, 0x00C8 Bytes, ...) - Data: 00 00 00 00 00 00 00 00 00 00 00 00 00 00 00 00 ... -- CPU_WriteMem(200 bytes @ 0x20001000)  returns 0xC8 (0007ms, 1132ms total)
T2878 018:027 JLINK_WriteReg(R0, 0x00005000)  returns 0x00 (0000ms, 1132ms total)
T2878 018:027 JLINK_WriteReg(R1, 0x00001000)  returns 0x00 (0000ms, 1132ms total)
T2878 018:027 JLINK_WriteReg(R2, 0x200000C8)  returns 0x00 (0000ms, 1132ms total)
T2878 018:027 JLINK_WriteReg(R3, 0x00000000)  returns 0x00 (0000ms, 1132ms total)
T2878 018:027 JLINK_WriteReg(R4, 0x00000000)  returns 0x00 (0000ms, 1132ms total)
T2878 018:027 JLINK_WriteReg(R5, 0x00000000)  returns 0x00 (0000ms, 1132ms total)
T2878 018:027 JLINK_WriteReg(R6, 0x00000000)  returns 0x00 (0000ms, 1132ms total)
T2878 018:027 JLINK_WriteReg(R7, 0x00000000)  returns 0x00 (0000ms, 1132ms total)
T2878 018:027 JLINK_WriteReg(R8, 0x00000000)  returns 0x00 (0000ms, 1132ms total)
T2878 018:027 JLINK_WriteReg(R9, 0x200000C4)  returns 0x00 (0000ms, 1132ms total)
T2878 018:027 JLINK_WriteReg(R10, 0x00000000)  returns 0x00 (0000ms, 1132ms total)
T2878 018:028 JLINK_WriteReg(R11, 0x00000000)  returns 0x00 (0000ms, 1133ms total)
T2878 018:028 JLINK_WriteReg(R12, 0x00000000)  returns 0x00 (0000ms, 1133ms total)
T2878 018:028 JLINK_WriteReg(R13 (SP), 0x20002000)  returns 0x00 (0000ms, 1133ms total)
T2878 018:028 JLINK_WriteReg(R14, 0x20000001)  returns 0x00 (0000ms, 1133ms total)
T2878 018:028 JLINK_WriteReg(R15 (PC), 0x2000008E)  returns 0x00 (0000ms, 1133ms total)
T2878 018:028 JLINK_WriteReg(XPSR, 0x01000000)  returns 0x00 (0000ms, 1133ms total)
T2878 018:028 JLINK_WriteReg(MSP, 0x20002000)  returns 0x00 (0000ms, 1133ms total)
T2878 018:028 JLINK_WriteReg(PSP, 0x20002000)  returns 0x00 (0000ms, 1133ms total)
T2878 018:028 JLINK_WriteReg(CFBP, 0x00000000)  returns 0x00 (0000ms, 1133ms total)
T2878 018:028 JLINK_SetBPEx(Addr = 0x20000000, Type = 0xFFFFFFF2)  returns 0x0000000D (0000ms, 1133ms total)
T2878 018:028 JLINK_Go() -- CPU_ReadMem(4 bytes @ 0xE0001000) -- CPU_WriteMem(4 bytes @ 0xE0001000) (0006ms, 1139ms total)
T2878 018:035 JLINK_IsHalted()  returns FALSE (0001ms, 1141ms total)
T2878 018:056 JLINK_IsHalted() -- CPU_ReadMem(2 bytes @ 0x20000000)  returns TRUE (0012ms, 1152ms total)
T2878 018:068 JLINK_ReadReg(R15 (PC))  returns 0x20000000 (0000ms, 1140ms total)
T2878 018:068 JLINK_ClrBPEx(BPHandle = 0x0000000D)  returns 0x00 (0000ms, 1140ms total)
T2878 018:068 JLINK_ReadReg(R0)  returns 0x00000000 (0000ms, 1140ms total)
T2878 018:069 JLINK_WriteMem(0x200000C8, 0x0338 Bytes, ...) - Data: 72 B6 0F 20 0E 4C 20 70 E5 14 28 46 00 F0 1E F8 ... -- CPU_WriteMem(824 bytes @ 0x200000C8)  returns 0x338 (0021ms, 1161ms total)
T2878 018:090 JLINK_WriteMem(0x20000400, 0x0400 Bytes, ...) - Data: 00 00 00 00 00 00 00 00 00 00 00 00 00 00 00 00 ... -- CPU_WriteMem(1024 bytes @ 0x20000400)  returns 0x400 (0027ms, 1188ms total)
T2878 018:117 JLINK_WriteMem(0x20000800, 0x0400 Bytes, ...) - Data: 00 00 00 00 00 00 00 00 00 00 00 00 00 00 00 00 ... -- CPU_WriteMem(1024 bytes @ 0x20000800)  returns 0x400 (0026ms, 1214ms total)
T2878 018:143 JLINK_WriteMem(0x20000C00, 0x0400 Bytes, ...) - Data: 00 00 00 00 00 00 00 00 00 00 00 00 00 00 00 00 ... -- CPU_WriteMem(1024 bytes @ 0x20000C00)  returns 0x400 (0027ms, 1241ms total)
T2878 018:170 JLINK_WriteMem(0x20001000, 0x00C8 Bytes, ...) - Data: 00 00 00 00 00 00 00 00 00 00 00 00 00 00 00 00 ... -- CPU_WriteMem(200 bytes @ 0x20001000)  returns 0xC8 (0007ms, 1248ms total)
T2878 018:177 JLINK_WriteReg(R0, 0x00006000)  returns 0x00 (0000ms, 1248ms total)
T2878 018:177 JLINK_WriteReg(R1, 0x000000B0)  returns 0x00 (0000ms, 1248ms total)
T2878 018:177 JLINK_WriteReg(R2, 0x200000C8)  returns 0x00 (0000ms, 1248ms total)
